<Qucs Dataset 0.0.15>
<indep Vin 21>
  +0.00000000000e+00
  +2.50000000000e-01
  +5.00000000000e-01
  +7.50000000000e-01
  +1.00000000000e+00
  +1.25000000000e+00
  +1.50000000000e+00
  +1.75000000000e+00
  +2.00000000000e+00
  +2.25000000000e+00
  +2.50000000000e+00
  +2.75000000000e+00
  +3.00000000000e+00
  +3.25000000000e+00
  +3.50000000000e+00
  +3.75000000000e+00
  +4.00000000000e+00
  +4.25000000000e+00
  +4.50000000000e+00
  +4.75000000000e+00
  +5.00000000000e+00
</indep>
<dep Pr1.V Vin>
  +0.00000000000e+00
  +4.99998498632e-01
  +9.99996988995e-01
  +1.49999546263e+00
  +1.99999391072e+00
  +2.49999232385e+00
  +2.99999069177e+00
  +3.49998900314e+00
  +3.99998724518e+00
  +4.49998540323e+00
  +4.99998346020e+00
  +5.49998139592e+00
  +5.99997918619e+00
  +6.49997680151e+00
  +6.99997420546e+00
  +7.49997135228e+00
  +7.99996818351e+00
  +8.49996462307e+00
  +8.99996056990e+00
  +9.49995588656e+00
  +9.99995038099e+00
</dep>
<dep V1.I Vin>
  +0.00000000000e+00
  -2.49999499544e-03
  -4.99998996332e-03
  -7.49998487545e-03
  -9.99997970241e-03
  -1.24999744128e-02
  -1.49999689726e-02
  -1.74999633438e-02
  -1.99999574839e-02
  -2.24999513441e-02
  -2.49999448673e-02
  -2.74999379864e-02
  -2.99999306206e-02
  -3.24999226717e-02
  -3.49999140182e-02
  -3.74999045076e-02
  -3.99998939450e-02
  -4.24998820769e-02
  -4.49998685663e-02
  -4.74998529552e-02
  -4.99998346033e-02
</dep>
<dep _net0.V Vin>
  +0.00000000000e+00
  +2.49999499544e-01
  +4.99998996332e-01
  +7.49998487545e-01
  +9.99997970241e-01
  +1.24999744128e+00
  +1.49999689726e+00
  +1.74999633438e+00
  +1.99999574839e+00
  +2.24999513441e+00
  +2.49999448673e+00
  +2.74999379864e+00
  +2.99999306206e+00
  +3.24999226717e+00
  +3.49999140182e+00
  +3.74999045076e+00
  +3.99998939450e+00
  +4.24998820769e+00
  +4.49998685663e+00
  +4.74998529552e+00
  +4.99998346033e+00
</dep>
<dep _net2.V Vin>
  +0.00000000000e+00
  +4.99998498632e-01
  +9.99996988995e-01
  +1.49999546263e+00
  +1.99999391072e+00
  +2.49999232385e+00
  +2.99999069177e+00
  +3.49998900314e+00
  +3.99998724518e+00
  +4.49998540323e+00
  +4.99998346020e+00
  +5.49998139592e+00
  +5.99997918619e+00
  +6.49997680151e+00
  +6.99997420546e+00
  +7.49997135228e+00
  +7.99996818351e+00
  +8.49996462307e+00
  +8.99996056990e+00
  +9.49995588656e+00
  +9.99995038099e+00
</dep>
<dep _net1.V Vin>
  +0.00000000000e+00
  +2.49998999088e-01
  +4.99997992663e-01
  +7.49996975089e-01
  +9.99995940481e-01
  +1.24999488256e+00
  +1.49999379451e+00
  +1.74999266876e+00
  +1.99999149679e+00
  +2.24999026882e+00
  +2.49998897347e+00
  +2.74998759728e+00
  +2.99998612412e+00
  +3.24998453434e+00
  +3.49998280364e+00
  +3.74998090152e+00
  +3.99997878901e+00
  +4.24997641538e+00
  +4.49997371327e+00
  +4.74997059104e+00
  +4.99996692066e+00
</dep>
<dep _net3.V Vin>
  +0.00000000000e+00
  +3.74999249316e-01
  +7.49998494497e-01
  +1.12499773132e+00
  +1.49999695536e+00
  +1.87499616192e+00
  +2.24999534588e+00
  +2.62499450157e+00
  +2.99999362259e+00
  +3.37499270161e+00
  +3.74999173010e+00
  +4.12499069796e+00
  +4.49998959309e+00
  +4.87498840076e+00
  +5.24998710273e+00
  +5.62498567614e+00
  +5.99998409175e+00
  +6.37498231154e+00
  +6.74998028495e+00
  +7.12497794328e+00
  +7.49997519050e+00
</dep>
<dep _net4.V Vin>
  +0.00000000000e+00
  +1.24999249316e-01
  +2.49998494497e-01
  +3.74997731317e-01
  +4.99996955361e-01
  +6.24996161923e-01
  +7.49995345884e-01
  +8.74994501572e-01
  +9.99993622592e-01
  +1.12499270161e+00
  +1.24999173010e+00
  +1.37499069796e+00
  +1.49998959309e+00
  +1.62498840076e+00
  +1.74998710273e+00
  +1.87498567614e+00
  +1.99998409175e+00
  +2.12498231154e+00
  +2.24998028495e+00
  +2.37497794328e+00
  +2.49997519050e+00
</dep>
