<Qucs Dataset 0.0.15>
<indep Rpt 21>
  +1.00000000000e+02
  +1.05000000000e+02
  +1.10000000000e+02
  +1.15000000000e+02
  +1.20000000000e+02
  +1.25000000000e+02
  +1.30000000000e+02
  +1.35000000000e+02
  +1.40000000000e+02
  +1.45000000000e+02
  +1.50000000000e+02
  +1.55000000000e+02
  +1.60000000000e+02
  +1.65000000000e+02
  +1.70000000000e+02
  +1.75000000000e+02
  +1.80000000000e+02
  +1.85000000000e+02
  +1.90000000000e+02
  +1.95000000000e+02
  +2.00000000000e+02
</indep>
<dep Vout.V Rpt>
  +3.99794296029e-01
  +4.19773515284e-01
  +4.39751735496e-01
  +4.59728956739e-01
  +4.79705179085e-01
  +4.99680402607e-01
  +5.19654627376e-01
  +5.39627853467e-01
  +5.59600080950e-01
  +5.79571309898e-01
  +5.99541540385e-01
  +6.19510772481e-01
  +6.39479006260e-01
  +6.59446241794e-01
  +6.79412479156e-01
  +6.99377718416e-01
  +7.19341959648e-01
  +7.39305202925e-01
  +7.59267448317e-01
  +7.79228695897e-01
  +7.99188945737e-01
</dep>
<dep V1.I Rpt>
  -9.20523196834e-02
  -9.16511301448e-02
  -9.12499606672e-02
  -9.08488112492e-02
  -9.04476818894e-02
  -9.00465725862e-02
  -8.96454833382e-02
  -8.92444141439e-02
  -8.88433650020e-02
  -8.84423359108e-02
  -8.80413268691e-02
  -8.76403378752e-02
  -8.72393689278e-02
  -8.68384200254e-02
  -8.64374911666e-02
  -8.60365823499e-02
  -8.56356935738e-02
  -8.52348248368e-02
  -8.48339761377e-02
  -8.44331474748e-02
  -8.40323388467e-02
</dep>
<dep Isrc.I Rpt>
  +3.99998993543e-03
  +3.99998987442e-03
  +3.99998981328e-03
  +3.99998975203e-03
  +3.99998969066e-03
  +3.99998962916e-03
  +3.99998956753e-03
  +3.99998950578e-03
  +3.99998944391e-03
  +3.99998938190e-03
  +3.99998931977e-03
  +3.99998925751e-03
  +3.99998919511e-03
  +3.99998913259e-03
  +3.99998906993e-03
  +3.99998900713e-03
  +3.99998894421e-03
  +3.99998888114e-03
  +3.99998881794e-03
  +3.99998875460e-03
  +3.99998869111e-03
</dep>
<dep _net9.V Rpt>
  +4.15794895822e-01
  +4.35774154865e-01
  +4.55752414870e-01
  +4.75729675911e-01
  +4.95705938060e-01
  +5.15681201391e-01
  +5.35655465976e-01
  +5.55628731889e-01
  +5.75600999201e-01
  +5.95572267986e-01
  +6.15542538316e-01
  +6.35511810265e-01
  +6.55480083905e-01
  +6.75447359308e-01
  +6.95413636548e-01
  +7.15378915696e-01
  +7.35343196826e-01
  +7.55306480010e-01
  +7.75268765320e-01
  +7.95230052829e-01
  +8.15190342610e-01
</dep>
<dep _net10.V Rpt>
  +4.15794895822e-01
  +4.35774154865e-01
  +4.55752414870e-01
  +4.75729675911e-01
  +4.95705938060e-01
  +5.15681201391e-01
  +5.35655465976e-01
  +5.55628731889e-01
  +5.75600999201e-01
  +5.95572267986e-01
  +6.15542538316e-01
  +6.35511810265e-01
  +6.55480083905e-01
  +6.75447359308e-01
  +6.95413636548e-01
  +7.15378915696e-01
  +7.35343196826e-01
  +7.55306480010e-01
  +7.75268765320e-01
  +7.95230052829e-01
  +8.15190342610e-01
</dep>
<dep _net11.V Rpt>
  +5.00000000000e+00
  +5.00000000000e+00
  +5.00000000000e+00
  +5.00000000000e+00
  +5.00000000000e+00
  +5.00000000000e+00
  +5.00000000000e+00
  +5.00000000000e+00
  +5.00000000000e+00
  +5.00000000000e+00
  +5.00000000000e+00
  +5.00000000000e+00
  +5.00000000000e+00
  +5.00000000000e+00
  +5.00000000000e+00
  +5.00000000000e+00
  +5.00000000000e+00
  +5.00000000000e+00
  +5.00000000000e+00
  +5.00000000000e+00
  +5.00000000000e+00
</dep>
<dep _net0.V Rpt>
  +4.07794915951e-01
  +4.27774175116e-01
  +4.47752435243e-01
  +4.67729696407e-01
  +4.87705958679e-01
  +5.07681222133e-01
  +5.27655486841e-01
  +5.47628752877e-01
  +5.67601020313e-01
  +5.87572289222e-01
  +6.07542559677e-01
  +6.27511831750e-01
  +6.47480105515e-01
  +6.67447381043e-01
  +6.87413658408e-01
  +7.07378937682e-01
  +7.27343218938e-01
  +7.47306502247e-01
  +7.67268787684e-01
  +7.87230075320e-01
  +8.07190365227e-01
</dep>
<dep _net2.V Rpt>
  +7.99981986646e-03
  +7.99981974404e-03
  +7.99981962138e-03
  +7.99981949847e-03
  +7.99981937532e-03
  +7.99981925193e-03
  +7.99981912828e-03
  +7.99981900438e-03
  +7.99981888023e-03
  +7.99981875583e-03
  +7.99981863116e-03
  +7.99981850624e-03
  +7.99981838105e-03
  +7.99981825560e-03
  +7.99981812988e-03
  +7.99981800390e-03
  +7.99981787764e-03
  +7.99981775111e-03
  +7.99981762430e-03
  +7.99981749722e-03
  +7.99981736986e-03
</dep>
<dep _net8.V Rpt>
  +4.15794479765e-01
  +4.35773718788e-01
  +4.55751958772e-01
  +4.75729199788e-01
  +4.95705441909e-01
  +5.15680685209e-01
  +5.35654929759e-01
  +5.55628175632e-01
  +5.75600422902e-01
  +5.95571671641e-01
  +6.15541921921e-01
  +6.35511173814e-01
  +6.55479427394e-01
  +6.75446682733e-01
  +6.95412939903e-01
  +7.15378198977e-01
  +7.35342460027e-01
  +7.55305723125e-01
  +7.75267988344e-01
  +7.95229255756e-01
  +8.15189525434e-01
</dep>
<dep _net6.V Rpt>
  +2.70789723988e+00
  +2.71788685939e+00
  +2.72787597939e+00
  +2.73786459989e+00
  +2.74785272095e+00
  +2.75784034260e+00
  +2.76782746488e+00
  +2.77781408782e+00
  +2.78780021145e+00
  +2.79778583582e+00
  +2.80777096096e+00
  +2.81775558691e+00
  +2.82773971370e+00
  +2.83772334137e+00
  +2.84770646995e+00
  +2.85768909949e+00
  +2.86767123001e+00
  +2.87765286156e+00
  +2.88763399417e+00
  +2.89761462788e+00
  +2.90759476272e+00
</dep>
<dep _net4.V Rpt>
  +3.99794296029e-01
  +4.19773515284e-01
  +4.39751735496e-01
  +4.59728956739e-01
  +4.79705179085e-01
  +4.99680402607e-01
  +5.19654627376e-01
  +5.39627853467e-01
  +5.59600080950e-01
  +5.79571309898e-01
  +5.99541540385e-01
  +6.19510772481e-01
  +6.39479006260e-01
  +6.59446241794e-01
  +6.79412479156e-01
  +6.99377718416e-01
  +7.19341959648e-01
  +7.39305202925e-01
  +7.59267448317e-01
  +7.79228695897e-01
  +7.99188945737e-01
</dep>
<dep _net3.V Rpt>
  +2.03897057948e-01
  +2.13886667514e-01
  +2.23875777559e-01
  +2.33864388119e-01
  +2.43852499230e-01
  +2.53840110929e-01
  +2.63827223252e-01
  +2.73813836235e-01
  +2.83799949915e-01
  +2.93785564327e-01
  +3.03770679508e-01
  +3.13755295494e-01
  +3.23739412321e-01
  +3.33723030025e-01
  +3.43706148643e-01
  +3.53688768210e-01
  +3.63670888763e-01
  +3.73652510338e-01
  +3.83633632971e-01
  +3.93614256697e-01
  +4.03594381554e-01
</dep>
<dep _net5.V Rpt>
  +2.70789115755e+00
  +2.71788074894e+00
  +2.72786984074e+00
  +2.73785843298e+00
  +2.74784652569e+00
  +2.75783411892e+00
  +2.76782121270e+00
  +2.77780780706e+00
  +2.78779390204e+00
  +2.79777949768e+00
  +2.80776459401e+00
  +2.81774919107e+00
  +2.82773328890e+00
  +2.83771688752e+00
  +2.84769998698e+00
  +2.85768258731e+00
  +2.86766468854e+00
  +2.87764629072e+00
  +2.88762739387e+00
  +2.89760799804e+00
  +2.90758810325e+00
</dep>
<dep _net7.V Rpt>
  +5.41578231511e+00
  +5.43576149788e+00
  +5.45573968148e+00
  +5.47571686595e+00
  +5.49569305138e+00
  +5.51566823784e+00
  +5.53564242539e+00
  +5.55561561412e+00
  +5.57558780408e+00
  +5.59555899536e+00
  +5.61552918803e+00
  +5.63549838215e+00
  +5.65546657780e+00
  +5.67543377504e+00
  +5.69539997396e+00
  +5.71536517461e+00
  +5.73532937708e+00
  +5.75529258143e+00
  +5.77525478774e+00
  +5.79521599607e+00
  +5.81517620650e+00
</dep>
<dep _net1.V Rpt>
  +2.03897457976e-01
  +2.13887087558e-01
  +2.23876217622e-01
  +2.33864848203e-01
  +2.43852979339e-01
  +2.53840611066e-01
  +2.63827743421e-01
  +2.73814376438e-01
  +2.83800510157e-01
  +2.93786144611e-01
  +3.03771279838e-01
  +3.13755915875e-01
  +3.23740052757e-01
  +3.33723690522e-01
  +3.43706829204e-01
  +3.53689468841e-01
  +3.63671609469e-01
  +3.73653251124e-01
  +3.83634393842e-01
  +3.93615037660e-01
  +4.03595182614e-01
</dep>
